! ListType=Lin
! Comment=mag phase
# MHZ S MA R 50
100.0000000   1.0050000 -33.4000000  13.3430000 160.0000000   0.0240000  68.3000000   0.8980000 -22.6000000
147.6190476   0.9950000 -49.7000000  12.8740000 149.0000000   0.0340000  57.9000000   0.8650000 -33.1000000
195.2380952   0.9800000 -57.5000000  12.5250000 143.6000000   0.0380000  53.2000000   0.8450000 -38.0000000
242.8571429   0.9670000 -64.6000000  12.1080000 138.3000000   0.0420000  47.8000000   0.8260000 -42.9000000
290.4761905   0.9430000 -77.5000000  11.1930000 129.0000000   0.0470000  39.3000000   0.7810000 -51.3000000
338.0952381   0.9160000 -88.9000000  10.2490000 121.2000000   0.0520000  32.3000000   0.7430000 -58.9000000
385.7142857   0.8910000 -98.7000000   9.4030000 113.9000000   0.0540000  26.2000000   0.7090000 -65.6000000
433.3333333   0.8770000 -107.6000000   8.5820000 107.3000000   0.0560000  20.6000000   0.6810000 -71.5000000
480.9523810   0.8620000 -115.0000000   7.9160000 101.9000000   0.0570000  15.7000000   0.6610000 -77.0000000
528.5714286   0.8520000 -121.9000000   7.2730000  96.4000000   0.0570000  11.2000000   0.6440000 -82.0000000
576.1904762   0.8440000 -128.1000000   6.7060000  91.9000000   0.0570000   7.5000000   0.6330000 -86.6000000
623.8095238   0.8350000 -133.3000000   6.2240000  87.3000000   0.0580000   3.4000000   0.6250000 -91.2000000
671.4285714   0.8280000 -138.3000000   5.7550000  83.0000000   0.0560000   0.2000000   0.6190000 -95.2000000
719.0476190   0.8240000 -142.7000000   5.3580000  79.3000000   0.0560000  -2.5000000   0.6180000 -99.0000000
766.6666667   0.8230000 -146.8000000   5.0240000  75.4000000   0.0540000  -5.8000000   0.6160000 -102.9000000
814.2857143   0.8200000 -150.6000000   4.6710000  72.0000000   0.0530000  -8.4000000   0.6150000 -106.6000000
861.9047619   0.8210000 -153.9000000   4.3980000  68.9000000   0.0510000 -10.5000000   0.6180000 -110.1000000
909.5238095   0.8220000 -157.2000000   4.1340000  65.2000000   0.0500000 -13.3000000   0.6220000 -113.2000000
957.1428571   0.8230000 -160.2000000   3.8530000  62.3000000   0.0480000 -15.2000000   0.6280000 -116.5000000
1004.7619048   0.8220000 -163.1000000   3.6770000  59.7000000   0.0470000 -17.2000000   0.6330000 -119.8000000
1052.3809524   0.8260000 -165.9000000   3.4590000  56.3000000   0.0440000 -19.5000000   0.6400000 -122.9000000
1100.0000000   0.8280000 -168.4000000   3.2410000  53.9000000   0.0420000 -20.2000000   0.6460000 -125.7000000
